time	V(vout1)	V(vout2)	I(C1)	I(C2)
0.000000000000000e+00	0.000000e+00	0.000000e+00	0.000000e+00	0.000000e+00
9.999999717180685e-10	5.000000e-08	1.000000e-08	3.750000e-04	7.500000e-05
1.999999943436137e-09	9.999999e-08	2.000000e-08	5.000000e-04	1.000000e-04
2.939976852906273e-03	1.445203e-01	2.916450e-02	4.855480e-04	9.854177e-05
5.879951705812603e-03	2.851491e-01	5.791956e-02	4.714851e-04	9.710402e-05
8.819926558718933e-03	4.218866e-01	8.626521e-02	4.578113e-04	9.568674e-05
1.175990141162526e-02	5.547327e-01	1.142014e-01	4.445267e-04	9.428992e-05
1.469987626453159e-02	6.836875e-01	1.417283e-01	4.316313e-04	9.291358e-05
1.763985111743792e-02	8.087509e-01	1.688457e-01	4.191249e-04	9.155772e-05
2.057982597034425e-02	9.299229e-01	1.955536e-01	4.070077e-04	9.022232e-05
2.769478132748711e-02	1.206485e+00	2.584357e-01	3.793515e-04	8.707821e-05
3.480973668462996e-02	1.466890e+00	3.192985e-01	3.533110e-04	8.403507e-05
4.192469204177282e-02	1.711138e+00	3.781421e-01	3.288862e-04	8.109289e-05
4.903964739891568e-02	1.939229e+00	4.349663e-01	3.060772e-04	7.825168e-05
5.615460275605855e-02	2.151162e+00	4.897713e-01	2.848838e-04	7.551143e-05
6.326955811320140e-02	2.346938e+00	5.425570e-01	2.653062e-04	7.287215e-05
7.038451347034425e-02	2.526557e+00	5.933235e-01	2.473443e-04	7.033383e-05
7.945259382748711e-02	2.737463e+00	6.553927e-01	2.262537e-04	6.723037e-05
8.852067418462997e-02	2.933418e+00	7.149885e-01	2.066582e-04	6.425058e-05
9.758875454177282e-02	3.114423e+00	7.721109e-01	1.885577e-04	6.139446e-05
1.066568348989157e-01	3.280477e+00	8.267600e-01	1.719523e-04	5.866200e-05
1.157249152560585e-01	3.431580e+00	8.789357e-01	1.568420e-04	5.605322e-05
1.247929956132014e-01	3.567732e+00	9.286380e-01	1.432268e-04	5.356810e-05
1.338610759703442e-01	3.688934e+00	9.758669e-01	1.311066e-04	5.120665e-05
1.429291563274871e-01	3.800726e+00	1.021056e+00	1.199274e-04	4.894717e-05
1.519972366846300e-01	3.904594e+00	1.064445e+00	1.095406e-04	4.677773e-05
1.610653170417728e-01	4.000536e+00	1.106033e+00	9.994634e-05	4.469833e-05
1.701333973989157e-01	4.088554e+00	1.145821e+00	9.114453e-05	4.270896e-05
1.792014777560585e-01	4.168648e+00	1.183807e+00	8.313520e-05	4.080963e-05
1.882695581132014e-01	4.240816e+00	1.219993e+00	7.591835e-05	3.900034e-05
1.973376384703442e-01	4.305060e+00	1.254378e+00	6.949397e-05	3.728108e-05
2.064057188274871e-01	4.364317e+00	1.287279e+00	6.356834e-05	3.563607e-05
2.154737991846300e-01	4.419372e+00	1.318868e+00	5.806277e-05	3.405660e-05
2.245418795417728e-01	4.470227e+00	1.349146e+00	5.297726e-05	3.254269e-05
2.336099598989157e-01	4.516882e+00	1.378113e+00	4.831180e-05	3.109433e-05
2.426780402560585e-01	4.559336e+00	1.405770e+00	4.406640e-05	2.971151e-05
2.517461206132014e-01	4.597589e+00	1.432115e+00	4.024106e-05	2.839426e-05
2.608142009703442e-01	4.631642e+00	1.457149e+00	3.683577e-05	2.714255e-05
2.700217902560585e-01	4.663498e+00	1.481459e+00	3.365018e-05	2.592705e-05
2.792293795417728e-01	4.693069e+00	1.504787e+00	3.069310e-05	2.476064e-05
2.884369688274871e-01	4.720355e+00	1.527134e+00	2.796453e-05	2.364332e-05
2.976445581132014e-01	4.745355e+00	1.548498e+00	2.546446e-05	2.257509e-05
3.068521473989157e-01	4.768071e+00	1.568881e+00	2.319291e-05	2.155594e-05
3.160597366846300e-01	4.788501e+00	1.588282e+00	2.114985e-05	2.058589e-05
3.252673259703442e-01	4.806647e+00	1.606702e+00	1.933531e-05	1.966492e-05
3.344749152560585e-01	4.823368e+00	1.624314e+00	1.766318e-05	1.878428e-05
3.436825045417728e-01	4.838890e+00	1.641216e+00	1.611099e-05	1.793921e-05
3.528900938274871e-01	4.853212e+00	1.657406e+00	1.467875e-05	1.712971e-05
3.620976831132014e-01	4.866335e+00	1.672885e+00	1.336645e-05	1.635577e-05
3.713052723989157e-01	4.878259e+00	1.687652e+00	1.217409e-05	1.561739e-05
3.805128616846300e-01	4.888983e+00	1.701708e+00	1.110168e-05	1.491458e-05
3.897204509703442e-01	4.898508e+00	1.715053e+00	1.014922e-05	1.424734e-05
3.990675491846299e-01	4.907408e+00	1.728001e+00	9.259231e-06	1.359996e-05
4.084146473989157e-01	4.915662e+00	1.740419e+00	8.433831e-06	1.297907e-05
4.177617456132014e-01	4.923270e+00	1.752307e+00	7.673016e-06	1.238467e-05
4.271088438274871e-01	4.930232e+00	1.763665e+00	6.976787e-06	1.181677e-05
4.364559420417728e-01	4.936548e+00	1.774493e+00	6.345143e-06	1.127535e-05
4.458030402560585e-01	4.942219e+00	1.784792e+00	5.778084e-06	1.076043e-05
4.551501384703442e-01	4.947244e+00	1.794560e+00	5.275610e-06	1.027199e-05
4.646367456132014e-01	4.951933e+00	1.804030e+00	4.806630e-06	9.798510e-06
4.741233527560585e-01	4.956279e+00	1.813107e+00	4.372072e-06	9.344655e-06
4.836099598989157e-01	4.960280e+00	1.821791e+00	3.971938e-06	8.910427e-06
4.930965670417728e-01	4.963938e+00	1.830083e+00	3.606228e-06	8.495827e-06
5.025831741846299e-01	4.967250e+00	1.837983e+00	3.274941e-06	8.100854e-06
5.120697813274872e-01	4.970219e+00	1.845490e+00	2.978078e-06	7.725508e-06
5.215563884703442e-01	4.972844e+00	1.852604e+00	2.715637e-06	7.369789e-06
5.313220134703442e-01	4.975323e+00	1.859591e+00	2.467705e-06	7.020431e-06
5.410876384703442e-01	4.977616e+00	1.866282e+00	2.238379e-06	6.685925e-06
5.508532634703442e-01	4.979723e+00	1.872675e+00	2.027660e-06	6.366271e-06
5.606188884703442e-01	4.981644e+00	1.878771e+00	1.835546e-06	6.061469e-06
5.703845134703442e-01	4.983380e+00	1.884570e+00	1.662040e-06	5.771520e-06
5.801501384703442e-01	4.984928e+00	1.890072e+00	1.507139e-06	5.496422e-06
5.899157634703442e-01	4.986291e+00	1.895277e+00	1.370845e-06	5.236176e-06
6.002394241846299e-01	4.987608e+00	1.900514e+00	1.239159e-06	4.974292e-06
6.105630848989156e-01	4.988822e+00	1.905518e+00	1.117780e-06	4.724089e-06
6.208867456132015e-01	4.989933e+00	1.910289e+00	1.006708e-06	4.485569e-06
6.312104063274872e-01	4.990940e+00	1.914825e+00	9.059423e-07	4.258730e-06
6.415340670417728e-01	4.991845e+00	1.919129e+00	8.154840e-07	4.043573e-06
6.518577277560585e-01	4.992647e+00	1.923198e+00	7.353326e-07	3.840098e-06
6.621813884703442e-01	4.993345e+00	1.927034e+00	6.654881e-07	3.648305e-06
6.737606295417728e-01	4.994055e+00	1.931109e+00	5.945575e-07	3.444567e-06
6.853398706132015e-01	4.994704e+00	1.934983e+00	5.296702e-07	3.250855e-06
6.969191116846299e-01	4.995292e+00	1.938657e+00	4.708263e-07	3.067167e-06
7.084983527560585e-01	4.995820e+00	1.942130e+00	4.180257e-07	2.893505e-06
7.200775938274872e-01	4.996287e+00	1.945403e+00	3.712685e-07	2.729867e-06
7.316568348989156e-01	4.996695e+00	1.948475e+00	3.305545e-07	2.576255e-06
7.432360759703442e-01	4.997041e+00	1.951347e+00	2.958840e-07	2.432668e-06
7.571869688274872e-01	4.997413e+00	1.954591e+00	2.586885e-07	2.270436e-06
7.711378616846299e-01	4.997749e+00	1.957649e+00	2.251080e-07	2.117530e-06
7.850887545417728e-01	4.998048e+00	1.960521e+00	1.951425e-07	1.973949e-06
7.990396473989156e-01	4.998312e+00	1.963206e+00	1.687920e-07	1.839693e-06
8.129905402560585e-01	4.998539e+00	1.965705e+00	1.460564e-07	1.714763e-06
8.269414331132015e-01	4.998731e+00	1.968017e+00	1.269357e-07	1.599158e-06
8.408923259703442e-01	4.998886e+00	1.970142e+00	1.114301e-07	1.492878e-06
8.600050491846299e-01	4.999068e+00	1.972815e+00	9.316230e-08	1.359270e-06
8.791177723989156e-01	4.999229e+00	1.975290e+00	7.706991e-08	1.235524e-06
8.982304956132015e-01	4.999368e+00	1.977567e+00	6.315292e-08	1.121639e-06
9.173432188274872e-01	4.999486e+00	1.979648e+00	5.141130e-08	1.017617e-06
9.364559420417728e-01	4.999581e+00	1.981531e+00	4.184508e-08	9.234573e-07
9.555686652560585e-01	4.999655e+00	1.983217e+00	3.445424e-08	8.391595e-07
9.746813884703442e-01	4.999708e+00	1.984705e+00	2.923878e-08	7.647238e-07
9.795642009703442e-01	4.999722e+00	1.985074e+00	2.784539e-08	7.462799e-07
9.990954509703442e-01	4.999771e+00	1.986463e+00	2.290492e-08	6.768460e-07
1.000000000000000e+00	4.999773e+00	1.986524e+00	2.269816e-08	6.737880e-07
